[2026-Jan-15 12:35:37] [debug] --------------------------------------------------------------------------------
[2026-Jan-15 12:35:37] [debug] nrfjprog --recover --clockspeed 100 --log 
[2026-Jan-15 12:35:37] [debug] nrfjprog version 10.24.2 external
[2026-Jan-15 12:35:37] [debug] --------------------------------------------------------------------------------
[2026-Jan-15 12:35:37] [ info] Load library at /Applications/Nordic Semiconductor/lib/libnrfjprogdll.dylib.
[2026-Jan-15 12:35:37] [ info] Library loaded, loading member functions.
[2026-Jan-15 12:35:37] [ info] Member functions succesfully loaded.
[2026-Jan-15 12:35:37] [debug] [ Client] - open
[2026-Jan-15 12:35:37] [debug] [ Client] - start
[2026-Jan-15 12:35:37] [ info] [ Client] - stdout: Jlinkarm nRF Worker ready. Handling sequence 6a464b5f-5301-4123-9fa0-50f9985d9ae4.
[2026-Jan-15 12:35:37] [trace] [ Client] - Command open executed for 12 milliseconds with result 0
[2026-Jan-15 12:35:37] [debug] [ Client] - config
[2026-Jan-15 12:35:37] [debug] [SeggerBackend] - Logger sink registered in Segger backend logger
[2026-Jan-15 12:35:37] [debug] [  JLink] - Logger sink registered in JLink logger
[2026-Jan-15 12:35:37] [debug] [  nRFXX] - open
[2026-Jan-15 12:35:37] [debug] [  nRFXX] - just_check_family
[2026-Jan-15 12:35:37] [debug] [SeggerBackend] - open_dll
[2026-Jan-15 12:35:37] [debug] [SeggerBackend] - No J-Link DLL path was provided. Attempting to auto detect.
[2026-Jan-15 12:35:37] [ info] [SeggerBackend] - Load library at /Applications/SEGGER/JLink/libjlinkarm.dylib.
[2026-Jan-15 12:35:37] [ info] [SeggerBackend] - Library loaded, loading member functions.
[2026-Jan-15 12:35:37] [ info] [SeggerBackend] - Member functions succesfully loaded.
[2026-Jan-15 12:35:37] [debug] [SeggerBackend] - Set batch mode
[2026-Jan-15 12:35:37] [debug] [SeggerBackend] - dll_version
[2026-Jan-15 12:35:37] [ info] [SeggerBackend] - Segger dll version 7.94.e loaded.
[2026-Jan-15 12:35:37] [trace] [ Worker] - Command open executed for 2 milliseconds with result 0
[2026-Jan-15 12:35:37] [trace] [ Client] - Command config executed for 6 milliseconds with result 0
[2026-Jan-15 12:35:37] [debug] [ Client] - enum_emu_snr
[2026-Jan-15 12:35:37] [trace] [ Client] - Command enum_emu_con_info executed for 6 milliseconds with result 0
[2026-Jan-15 12:35:37] [debug] [ Client] - connect_to_emu_with_snr
[2026-Jan-15 12:35:37] [debug] [  nRFXX] - config
[2026-Jan-15 12:35:37] [debug] [SeggerBackend] - enum_emu_snr
[2026-Jan-15 12:35:37] [trace] [ Worker] - Command config executed for 1 milliseconds with result 0
[2026-Jan-15 12:35:37] [debug] [  nRFXX] - enum_emu_con_info
[2026-Jan-15 12:35:37] [debug] [SeggerBackend] - is_connected_to_emu
[2026-Jan-15 12:35:37] [debug] [SeggerBackend] - enum_emu_con_info
[2026-Jan-15 12:35:37] [debug] [SeggerBackend] - is_connected_to_emu
[2026-Jan-15 12:35:37] [trace] [ Worker] - Command enum_emu_con_info executed for 0 milliseconds with result 0
[2026-Jan-15 12:35:37] [debug] [  nRFXX] - connect_to_emu_with_snr
[2026-Jan-15 12:35:37] [debug] [SeggerBackend] - is_connected_to_emu
[2026-Jan-15 12:35:37] [debug] [SeggerBackend] - connect_to_emu_with_snr
[2026-Jan-15 12:35:37] [debug] [SeggerBackend] - is_connected_to_emu
[2026-Jan-15 12:35:37] [debug] [SeggerBackend] - ---just_enum_emu_snr
[2026-Jan-15 12:35:37] [debug] [SeggerBackend] - ---just_get_num_emus
[2026-Jan-15 12:35:37] [debug] [SeggerBackend] - ---just_connect_to_emu_with_snr
[2026-Jan-15 12:35:37] [debug] [SeggerBackend] - ---just_connect_to_emu_without_snr
[2026-Jan-15 12:35:37] [debug] [SeggerBackend] - Segger logging enabled.
[2026-Jan-15 12:35:37] [trace] [  JLink] - Firmware: J-Link Pro V4 V11 PLUS Apr compiled 1 2025 10:30:02
[2026-Jan-15 12:35:37] [trace] [  JLink] - Firmware: J-Link Pro V4 V11 PLUS Apr compiled 1 2025 10:30:02
[2026-Jan-15 12:35:37] [trace] [  JLink] - Decompressing FW timestamp took 82 us
[2026-Jan-15 12:35:37] [trace] [  JLink] - Hardware: V11.00
[2026-Jan-15 12:35:37] [trace] [  JLink] - S/N: 601025315
[2026-Jan-15 12:35:37] [trace] [  JLink] - OEM: SEGGER
[2026-Jan-15 12:35:37] [trace] [  JLink] - Feature(s): FlashBP, GDB, JFlash, FlashDL, RDI
[2026-Jan-15 12:35:37] [trace] [  JLink] - Bootloader: (Could not read)
[2026-Jan-15 12:35:37] [trace] [  JLink] - USB speed mode: High speed (480 MBit/s)
[2026-Jan-15 12:35:37] [trace] [  JLink] - TELNET listener socket opened on port 19021
[2026-Jan-15 12:35:37] [trace] [  JLink] - WEBSRV WEBSRV_Init(): Starting webserver thread(s)
[2026-Jan-15 12:35:37] [trace] [  JLink] - WEBSRV Webserver running on local port 19080
[2026-Jan-15 12:35:37] [trace] [  JLink] - Looking for J-Link GUI Server exe at: /Applications/SEGGER/JLink_V794e/JLinkGUIServerExe 
[2026-Jan-15 12:35:37] [trace] [  JLink] - Forking J-Link GUI Server: /Applications/SEGGER/JLink_V794e/JLinkGUIServerExe 
[2026-Jan-15 12:35:38] [trace] [  JLink] - J-Link GUI Server info: "J-Link GUI server V7.94e " 
[2026-Jan-15 12:35:38] [trace] [ Client] - Command connect_to_emu_with_snr executed for 853 milliseconds with result 0
[2026-Jan-15 12:35:38] [debug] [ Client] - read_connected_emu_snr
[2026-Jan-15 12:35:38] [trace] [  JLink] - - 822.385ms returns "O.K."  
[2026-Jan-15 12:35:38] [trace] [  JLink] - JLINK_HasError()  
[2026-Jan-15 12:35:38] [trace] [  JLink] - JLINK_Lock()  
[2026-Jan-15 12:35:38] [trace] [  JLink] - JLINK_ExecCommand("SetRestartOnClose = 0", ...).   
[2026-Jan-15 12:35:38] [trace] [  JLink] - - 0.002ms returns 0x01  
[2026-Jan-15 12:35:38] [trace] [  JLink] - JLINK_HasError()  
[2026-Jan-15 12:35:38] [trace] [  JLink] - JLINK_ExecCommand("DisableFlashDL", ...).   
[2026-Jan-15 12:35:38] [trace] [  JLink] - - 0.001ms returns 0x00  
[2026-Jan-15 12:35:38] [trace] [  JLink] - JLINK_HasError()  
[2026-Jan-15 12:35:38] [trace] [  JLink] - JLINK_ExecCommand("ExcludeFlashCacheRange 0x0-0xFFFFFFFF", ...).   
[2026-Jan-15 12:35:38] [trace] [  JLink] - - 0.002ms returns 0x00  
[2026-Jan-15 12:35:38] [trace] [  JLink] - JLINK_HasError()  
[2026-Jan-15 12:35:38] [trace] [  JLink] - JLINK_SetHookUnsecureDialog  
[2026-Jan-15 12:35:38] [trace] [  JLink] - JLINK_SetHookUnsecureDialog(...)
[2026-Jan-15 12:35:38] [trace] [  JLink] - - 0.002ms returns 0  
[2026-Jan-15 12:35:38] [trace] [  JLink] - JLINK_HasError()  
[2026-Jan-15 12:35:38] [trace] [  JLink] - JLINK_TIF_Select(JLINKARM_TIF_SWD)  
[2026-Jan-15 12:35:38] [trace] [  JLink] - - 0.652ms returns 0x00  
[2026-Jan-15 12:35:38] [trace] [  JLink] - JLINK_HasError()  
[2026-Jan-15 12:35:38] [trace] [  JLink] - JLINK_GetSpeedInfo()  
[2026-Jan-15 12:35:38] [trace] [  JLink] - 180000000 Hz / n, n >= 12
[2026-Jan-15 12:35:38] [trace] [  JLink] - - 0.003ms  
[2026-Jan-15 12:35:38] [trace] [  JLink] - JLINK_HasError()  
[2026-Jan-15 12:35:38] [debug] [SeggerBackend] - Connected emulator supports SWD speeds up to 15000kHz
[2026-Jan-15 12:35:38] [trace] [  JLink] - JLINK_SetSpeed(100)  
[2026-Jan-15 12:35:38] [trace] [  JLink] - - 0.185ms  
[2026-Jan-15 12:35:38] [trace] [  JLink] - JLINK_HasError()  
[2026-Jan-15 12:35:38] [trace] [  JLink] - JLINK_GetSpeed()  
[2026-Jan-15 12:35:38] [trace] [  JLink] - - 0.001ms returns 100  
[2026-Jan-15 12:35:38] [trace] [  JLink] - JLINK_HasError()  
[2026-Jan-15 12:35:38] [debug] [SeggerBackend] - SWD clock set to 100kHz
[2026-Jan-15 12:35:38] [trace] [  JLink] - JLINK_GetSN()  
[2026-Jan-15 12:35:38] [trace] [  JLink] - - 0.001ms returns 601025315  
[2026-Jan-15 12:35:38] [trace] [  JLink] - JLINK_HasError()  
[2026-Jan-15 12:35:38] [trace] [  JLink] - - 0.001ms  
[2026-Jan-15 12:35:38] [debug] [  nRFXX] - read_device_family
[2026-Jan-15 12:35:38] [debug] [  nRFXX] - read_device_family
[2026-Jan-15 12:35:38] [debug] [SeggerBackend] - is_connected_to_emu
[2026-Jan-15 12:35:38] [trace] [  JLink] - JLINK_IsOpen()  
[2026-Jan-15 12:35:38] [trace] [  JLink] - - 0.000ms returns 0x01  
[2026-Jan-15 12:35:38] [trace] [  JLink] - JLINK_HasError()  
[2026-Jan-15 12:35:38] [trace] [  JLink] - JLINK_Lock()  
[2026-Jan-15 12:35:38] [debug] [SeggerBackend] - is_connected_to_emu
[2026-Jan-15 12:35:38] [debug] [SeggerBackend] - read_debug_port_idr
[2026-Jan-15 12:35:38] [debug] [SeggerBackend] - read_debug_port_register
[2026-Jan-15 12:35:38] [debug] [SeggerBackend] - ---just_read_debug_port_register
[2026-Jan-15 12:35:38] [debug] [SeggerBackend] - coresight_configure
[2026-Jan-15 12:35:38] [trace] [  JLink] - JLINK_GetHWStatus(...)  
[2026-Jan-15 12:35:38] [trace] [  JLink] - - 0.156ms returns 0  
[2026-Jan-15 12:35:38] [trace] [  JLink] - JLINK_HasError()  
[2026-Jan-15 12:35:38] [trace] [  JLink] - JLINK_CORESIGHT_Configure()  
[2026-Jan-15 12:35:38] [trace] [  JLink] - - 4.799ms returns 0  
[2026-Jan-15 12:35:38] [trace] [  JLink] - JLINK_HasError()  
[2026-Jan-15 12:35:38] [debug] [SeggerBackend] - read_debug_port_idr
[2026-Jan-15 12:35:38] [debug] [SeggerBackend] - read_debug_port_register
[2026-Jan-15 12:35:38] [debug] [SeggerBackend] - ---just_read_debug_port_register
[2026-Jan-15 12:35:38] [debug] [SeggerBackend] - ---just_select_debug_port_register
[2026-Jan-15 12:35:38] [debug] [SeggerBackend] - Select AP 255, DP Bank 0, AP Bank 255
[2026-Jan-15 12:35:38] [trace] [  JLink] - JLINK_CORESIGHT_WriteAPDPReg(DP reg 0x02, 0x00000000)  
[2026-Jan-15 12:35:38] [trace] [  JLink] - - 0.589ms returns 0  
[2026-Jan-15 12:35:38] [trace] [  JLink] - JLINK_HasError()  
[2026-Jan-15 12:35:38] [trace] [  JLink] - JLINK_CORESIGHT_ReadAPDPReg(DP reg 0x00)  
[2026-Jan-15 12:35:38] [trace] [  JLink] - Value=0x2BA01477
[2026-Jan-15 12:35:38] [trace] [  JLink] - - 0.611ms returns 0  
[2026-Jan-15 12:35:38] [trace] [  JLink] - JLINK_HasError()  
[2026-Jan-15 12:35:38] [debug] [SeggerBackend] - ---just_select_debug_port_register
[2026-Jan-15 12:35:38] [trace] [  JLink] - JLINK_CORESIGHT_ReadAPDPReg(DP reg 0x00)  
[2026-Jan-15 12:35:38] [trace] [  JLink] - Value=0x2BA01477
[2026-Jan-15 12:35:38] [trace] [  JLink] - - 0.616ms returns 0  
[2026-Jan-15 12:35:38] [trace] [  JLink] - JLINK_HasError()  
[2026-Jan-15 12:35:38] [ info] [  nRFXX] - Discovered device from family NRF52.
[2026-Jan-15 12:35:38] [trace] [  JLink] - - 0.016ms  
[2026-Jan-15 12:35:38] [debug] [SeggerBackend] - set_core_data
[2026-Jan-15 12:35:38] [debug] [SeggerBackend] - Set core data:
[2026-Jan-15 12:35:38] [debug] [SeggerBackend] -   Device ID: nRF52
[2026-Jan-15 12:35:38] [debug] [SeggerBackend] -   Expected core: 234881279
[2026-Jan-15 12:35:38] [debug] [SeggerBackend] -   Existing Expected core: 4294967295
[2026-Jan-15 12:35:38] [debug] [SeggerBackend] -   Coprocessor: APPLICATION
[2026-Jan-15 12:35:38] [debug] [SeggerBackend] -   AHB AP index: 0
[2026-Jan-15 12:35:38] [debug] [SeggerBackend] -   Core base address: 4294967295
[2026-Jan-15 12:35:38] [debug] [SeggerBackend] - ---set_coresight_ahb_ap_index
[2026-Jan-15 12:35:38] [trace] [  JLink] - JLINK_ExecCommand("CORESIGHT_SetIndexAHBAPToUse = 0", ...).   
[2026-Jan-15 12:35:38] [trace] [  JLink] - - 0.000ms returns 0x00  
[2026-Jan-15 12:35:38] [trace] [  JLink] - JLINK_HasError()  
[2026-Jan-15 12:35:38] [trace] [  JLink] - JLINK_ExecCommand("device = nRF52", ...).   
[2026-Jan-15 12:35:38] [trace] [  JLink] - Device "NRF52" selected.
[2026-Jan-15 12:35:38] [trace] [  JLink] - Device "NRF52" selected.
[2026-Jan-15 12:35:38] [trace] [  JLink] - - 0.308ms returns 0x00  
[2026-Jan-15 12:35:38] [trace] [  JLink] - JLINK_HasError()  
[2026-Jan-15 12:35:38] [trace] [ Worker] - Command connect_to_emu_with_snr executed for 851 milliseconds with result 0
[2026-Jan-15 12:35:38] [trace] [ Client] - Command read_connected_emu_snr executed for 6 milliseconds with result 0
[2026-Jan-15 12:35:38] [debug] [ Client] - read_device_family
[2026-Jan-15 12:35:38] [trace] [ Client] - Command read_device_family executed for 5 milliseconds with result 0
[2026-Jan-15 12:35:38] [debug] [ Client] - select_family
[2026-Jan-15 12:35:38] [trace] [ Client] - Command select_family executed for 6 milliseconds with result 0
[2026-Jan-15 12:35:38] [debug] [ Client] - recover
[2026-Jan-15 12:35:38] [debug] [  nRF52] - read_connected_emu_snr
[2026-Jan-15 12:35:38] [debug] [SeggerBackend] - is_connected_to_emu
[2026-Jan-15 12:35:38] [trace] [  JLink] - JLINK_IsOpen()  
[2026-Jan-15 12:35:38] [trace] [  JLink] - - 0.003ms returns 0x01  
[2026-Jan-15 12:35:38] [trace] [  JLink] - JLINK_HasError()  
[2026-Jan-15 12:35:38] [trace] [  JLink] - JLINK_Lock()  
[2026-Jan-15 12:35:38] [debug] [SeggerBackend] - read_connected_emu_snr
[2026-Jan-15 12:35:38] [trace] [  JLink] - - 0.001ms  
[2026-Jan-15 12:35:38] [trace] [ Worker] - Command read_connected_emu_snr executed for 0 milliseconds with result 0
[2026-Jan-15 12:35:38] [debug] [  nRF52] - read_device_family
[2026-Jan-15 12:35:38] [trace] [ Worker] - Command read_device_family executed for 0 milliseconds with result 0
[2026-Jan-15 12:35:38] [debug] [SeggerBackend] - set_core_data
[2026-Jan-15 12:35:38] [debug] [SeggerBackend] - Set core data:
[2026-Jan-15 12:35:38] [debug] [SeggerBackend] -   Device ID: nRF52
[2026-Jan-15 12:35:38] [debug] [SeggerBackend] -   Expected core: 234881279
[2026-Jan-15 12:35:38] [debug] [SeggerBackend] -   Existing Expected core: 234881279
[2026-Jan-15 12:35:38] [debug] [SeggerBackend] -   Coprocessor: APPLICATION
[2026-Jan-15 12:35:38] [debug] [SeggerBackend] -   AHB AP index: 0
[2026-Jan-15 12:35:38] [debug] [SeggerBackend] -   Core base address: 4294967295
[2026-Jan-15 12:35:38] [trace] [ Worker] - Command select_family executed for 0 milliseconds with result 0
[2026-Jan-15 12:35:38] [debug] [  nRF52] - recover
[2026-Jan-15 12:35:38] [debug] [SeggerBackend] - is_connected_to_emu
[2026-Jan-15 12:35:38] [trace] [  JLink] - JLINK_IsOpen()  
[2026-Jan-15 12:35:38] [trace] [  JLink] - - 0.008ms returns 0x01  
[2026-Jan-15 12:35:38] [trace] [  JLink] - JLINK_HasError()  
[2026-Jan-15 12:35:38] [trace] [  JLink] - JLINK_Lock()  
[2026-Jan-15 12:35:38] [debug] [SeggerBackend] - is_connected_to_emu
[2026-Jan-15 12:35:38] [debug] [  nRF52] - Just_recover
[2026-Jan-15 12:35:38] [debug] [  nRF52] - Just_is_ctrl_ap_available
[2026-Jan-15 12:35:38] [debug] [SeggerBackend] - read_access_port_register
[2026-Jan-15 12:35:38] [debug] [SeggerBackend] - ---just_read_access_port_register
[2026-Jan-15 12:35:38] [debug] [SeggerBackend] - ---just_is_debug_region_powered
[2026-Jan-15 12:35:38] [debug] [SeggerBackend] - ---just_read_debug_port_register
[2026-Jan-15 12:35:38] [debug] [SeggerBackend] - ---just_select_debug_port_register
[2026-Jan-15 12:35:38] [debug] [SeggerBackend] - Select AP 255, DP Bank 0, AP Bank 255
[2026-Jan-15 12:35:38] [trace] [  JLink] - JLINK_CORESIGHT_WriteAPDPReg(DP reg 0x02, 0x00000000)  
[2026-Jan-15 12:35:38] [trace] [  JLink] - - 0.606ms returns 0  
[2026-Jan-15 12:35:38] [trace] [  JLink] - JLINK_HasError()  
[2026-Jan-15 12:35:38] [trace] [  JLink] - JLINK_CORESIGHT_ReadAPDPReg(DP reg 0x01)  
[2026-Jan-15 12:35:38] [trace] [  JLink] - Value=0xF0000040
[2026-Jan-15 12:35:38] [trace] [  JLink] - - 0.554ms returns 0  
[2026-Jan-15 12:35:38] [trace] [  JLink] - JLINK_HasError()  
[2026-Jan-15 12:35:38] [debug] [SeggerBackend] - ---just_select_access_port_register
[2026-Jan-15 12:35:38] [debug] [SeggerBackend] - Select AP 1, DP Bank 0, AP Bank 15
[2026-Jan-15 12:35:38] [trace] [  JLink] - JLINK_CORESIGHT_WriteAPDPReg(DP reg 0x02, 0x010000F0)  
[2026-Jan-15 12:35:38] [trace] [  JLink] - - 0.592ms returns 0  
[2026-Jan-15 12:35:38] [trace] [  JLink] - JLINK_HasError()  
[2026-Jan-15 12:35:38] [trace] [  JLink] - JLINK_CORESIGHT_ReadAPDPReg(AP reg 0x03)  
[2026-Jan-15 12:35:38] [trace] [  JLink] - Value=0x02880000
[2026-Jan-15 12:35:38] [trace] [  JLink] - - 1.056ms returns 0  
[2026-Jan-15 12:35:38] [trace] [  JLink] - JLINK_HasError()  
[2026-Jan-15 12:35:38] [debug] [SeggerBackend] - read_access_port_register
[2026-Jan-15 12:35:38] [debug] [SeggerBackend] - ---just_read_access_port_register
[2026-Jan-15 12:35:38] [debug] [SeggerBackend] - ---just_select_access_port_register
[2026-Jan-15 12:35:38] [trace] [  JLink] - JLINK_CORESIGHT_ReadAPDPReg(AP reg 0x03)  
[2026-Jan-15 12:35:38] [trace] [  JLink] - Value=0x02880000
[2026-Jan-15 12:35:38] [trace] [  JLink] - - 0.998ms returns 0  
[2026-Jan-15 12:35:38] [trace] [  JLink] - JLINK_HasError()  
[2026-Jan-15 12:35:38] [debug] [SeggerBackend] - read_access_port_register
[2026-Jan-15 12:35:38] [debug] [SeggerBackend] - ---just_read_access_port_register
[2026-Jan-15 12:35:38] [debug] [SeggerBackend] - ---just_select_access_port_register
[2026-Jan-15 12:35:38] [trace] [  JLink] - JLINK_CORESIGHT_ReadAPDPReg(AP reg 0x03)  
[2026-Jan-15 12:35:38] [trace] [  JLink] - Value=0x02880000
[2026-Jan-15 12:35:38] [trace] [  JLink] - - 1.017ms returns 0  
[2026-Jan-15 12:35:38] [trace] [  JLink] - JLINK_HasError()  
[2026-Jan-15 12:35:38] [debug] [SeggerBackend] - read_access_port_register
[2026-Jan-15 12:35:38] [debug] [SeggerBackend] - ---just_read_access_port_register
[2026-Jan-15 12:35:38] [debug] [SeggerBackend] - ---just_select_access_port_register
[2026-Jan-15 12:35:38] [trace] [  JLink] - JLINK_CORESIGHT_ReadAPDPReg(AP reg 0x03)  
[2026-Jan-15 12:35:38] [trace] [  JLink] - Value=0x02880000
[2026-Jan-15 12:35:38] [trace] [  JLink] - - 1.064ms returns 0  
[2026-Jan-15 12:35:38] [trace] [  JLink] - JLINK_HasError()  
[2026-Jan-15 12:35:38] [debug] [SeggerBackend] - write_access_port_register
[2026-Jan-15 12:35:38] [debug] [SeggerBackend] - ---just_write_access_port_register
[2026-Jan-15 12:35:38] [debug] [SeggerBackend] - ---just_select_access_port_register
[2026-Jan-15 12:35:38] [debug] [SeggerBackend] - Select AP 1, DP Bank 0, AP Bank 0
[2026-Jan-15 12:35:38] [trace] [  JLink] - JLINK_CORESIGHT_WriteAPDPReg(DP reg 0x02, 0x01000000)  
[2026-Jan-15 12:35:38] [trace] [  JLink] - - 0.532ms returns 0  
[2026-Jan-15 12:35:38] [trace] [  JLink] - JLINK_HasError()  
[2026-Jan-15 12:35:38] [trace] [  JLink] - JLINK_CORESIGHT_WriteAPDPReg(AP reg 0x01, 0x00000001)  
[2026-Jan-15 12:35:38] [trace] [  JLink] - - 0.596ms returns 0  
[2026-Jan-15 12:35:38] [trace] [  JLink] - JLINK_HasError()  
[2026-Jan-15 12:35:39] [debug] [SeggerBackend] - read_access_port_register
[2026-Jan-15 12:35:39] [debug] [SeggerBackend] - ---just_read_access_port_register
[2026-Jan-15 12:35:39] [debug] [SeggerBackend] - ---just_select_access_port_register
[2026-Jan-15 12:35:39] [trace] [  JLink] - JLINK_CORESIGHT_ReadAPDPReg(AP reg 0x02)  
[2026-Jan-15 12:35:39] [trace] [  JLink] - Value=0x00000001
[2026-Jan-15 12:35:39] [trace] [  JLink] - - 1.204ms returns 0  
[2026-Jan-15 12:35:39] [trace] [  JLink] - JLINK_HasError()  
[2026-Jan-15 12:35:39] [debug] [SeggerBackend] - read_access_port_register
[2026-Jan-15 12:35:39] [debug] [SeggerBackend] - ---just_read_access_port_register
[2026-Jan-15 12:35:39] [debug] [SeggerBackend] - ---just_select_access_port_register
[2026-Jan-15 12:35:39] [trace] [  JLink] - JLINK_CORESIGHT_ReadAPDPReg(AP reg 0x02)  
[2026-Jan-15 12:35:39] [trace] [  JLink] - Value=0x00000000
[2026-Jan-15 12:35:39] [trace] [  JLink] - - 1.142ms returns 0  
[2026-Jan-15 12:35:39] [trace] [  JLink] - JLINK_HasError()  
[2026-Jan-15 12:35:39] [debug] [  nRF52] - Just_debug_reset
[2026-Jan-15 12:35:39] [debug] [  nRF52] - Just_is_ctrl_ap_available
[2026-Jan-15 12:35:39] [debug] [SeggerBackend] - read_access_port_register
[2026-Jan-15 12:35:39] [debug] [SeggerBackend] - ---just_read_access_port_register
[2026-Jan-15 12:35:39] [debug] [SeggerBackend] - ---just_select_access_port_register
[2026-Jan-15 12:35:39] [debug] [SeggerBackend] - Select AP 1, DP Bank 0, AP Bank 15
[2026-Jan-15 12:35:39] [trace] [  JLink] - JLINK_CORESIGHT_WriteAPDPReg(DP reg 0x02, 0x010000F0)  
[2026-Jan-15 12:35:39] [trace] [  JLink] - - 0.611ms returns 0  
[2026-Jan-15 12:35:39] [trace] [  JLink] - JLINK_HasError()  
[2026-Jan-15 12:35:39] [trace] [  JLink] - JLINK_CORESIGHT_ReadAPDPReg(AP reg 0x03)  
[2026-Jan-15 12:35:39] [trace] [  JLink] - Value=0x02880000
[2026-Jan-15 12:35:39] [trace] [  JLink] - - 1.109ms returns 0  
[2026-Jan-15 12:35:39] [trace] [  JLink] - JLINK_HasError()  
[2026-Jan-15 12:35:39] [debug] [SeggerBackend] - read_access_port_register
[2026-Jan-15 12:35:39] [debug] [SeggerBackend] - ---just_read_access_port_register
[2026-Jan-15 12:35:39] [debug] [SeggerBackend] - ---just_select_access_port_register
[2026-Jan-15 12:35:39] [trace] [  JLink] - JLINK_CORESIGHT_ReadAPDPReg(AP reg 0x03)  
[2026-Jan-15 12:35:39] [trace] [  JLink] - Value=0x02880000
[2026-Jan-15 12:35:39] [trace] [  JLink] - - 1.094ms returns 0  
[2026-Jan-15 12:35:39] [trace] [  JLink] - JLINK_HasError()  
[2026-Jan-15 12:35:39] [debug] [SeggerBackend] - read_access_port_register
[2026-Jan-15 12:35:39] [debug] [SeggerBackend] - ---just_read_access_port_register
[2026-Jan-15 12:35:39] [debug] [SeggerBackend] - ---just_select_access_port_register
[2026-Jan-15 12:35:39] [trace] [  JLink] - JLINK_CORESIGHT_ReadAPDPReg(AP reg 0x03)  
[2026-Jan-15 12:35:39] [trace] [  JLink] - Value=0x02880000
[2026-Jan-15 12:35:39] [trace] [  JLink] - - 1.170ms returns 0  
[2026-Jan-15 12:35:39] [trace] [  JLink] - JLINK_HasError()  
[2026-Jan-15 12:35:39] [debug] [SeggerBackend] - read_access_port_register
[2026-Jan-15 12:35:39] [debug] [SeggerBackend] - ---just_read_access_port_register
[2026-Jan-15 12:35:39] [debug] [SeggerBackend] - ---just_select_access_port_register
[2026-Jan-15 12:35:39] [trace] [  JLink] - JLINK_CORESIGHT_ReadAPDPReg(AP reg 0x03)  
[2026-Jan-15 12:35:39] [trace] [  JLink] - Value=0x02880000
[2026-Jan-15 12:35:39] [trace] [  JLink] - - 1.113ms returns 0  
[2026-Jan-15 12:35:39] [trace] [  JLink] - JLINK_HasError()  
[2026-Jan-15 12:35:39] [debug] [SeggerBackend] - write_access_port_register
[2026-Jan-15 12:35:39] [debug] [SeggerBackend] - ---just_write_access_port_register
[2026-Jan-15 12:35:39] [debug] [SeggerBackend] - ---just_select_access_port_register
[2026-Jan-15 12:35:39] [debug] [SeggerBackend] - Select AP 1, DP Bank 0, AP Bank 0
[2026-Jan-15 12:35:39] [trace] [  JLink] - JLINK_CORESIGHT_WriteAPDPReg(DP reg 0x02, 0x01000000)  
[2026-Jan-15 12:35:39] [trace] [  JLink] - - 0.571ms returns 0  
[2026-Jan-15 12:35:39] [trace] [  JLink] - JLINK_HasError()  
[2026-Jan-15 12:35:39] [trace] [  JLink] - JLINK_CORESIGHT_WriteAPDPReg(AP reg 0x00, 0x00000001)  
[2026-Jan-15 12:35:39] [trace] [  JLink] - - 0.599ms returns 0  
[2026-Jan-15 12:35:39] [trace] [  JLink] - JLINK_HasError()  
[2026-Jan-15 12:35:39] [debug] [SeggerBackend] - write_access_port_register
[2026-Jan-15 12:35:39] [debug] [SeggerBackend] - ---just_write_access_port_register
[2026-Jan-15 12:35:39] [debug] [SeggerBackend] - ---just_select_access_port_register
[2026-Jan-15 12:35:39] [trace] [  JLink] - JLINK_CORESIGHT_WriteAPDPReg(AP reg 0x00, 0x00000000)  
[2026-Jan-15 12:35:39] [trace] [  JLink] - - 1.368ms returns 0  
[2026-Jan-15 12:35:39] [trace] [  JLink] - JLINK_HasError()  
[2026-Jan-15 12:35:39] [debug] [SeggerBackend] - write_access_port_register
[2026-Jan-15 12:35:39] [debug] [SeggerBackend] - ---just_write_access_port_register
[2026-Jan-15 12:35:39] [debug] [SeggerBackend] - ---just_select_access_port_register
[2026-Jan-15 12:35:39] [trace] [  JLink] - JLINK_CORESIGHT_WriteAPDPReg(AP reg 0x01, 0x00000000)  
[2026-Jan-15 12:35:39] [trace] [  JLink] - - 0.726ms returns 0  
[2026-Jan-15 12:35:39] [trace] [  JLink] - JLINK_HasError()  
[2026-Jan-15 12:35:39] [debug] [  nRF52] - Just_readback_status
[2026-Jan-15 12:35:39] [debug] [  nRF52] - Just_is_ctrl_ap_available
[2026-Jan-15 12:35:39] [debug] [SeggerBackend] - read_access_port_register
[2026-Jan-15 12:35:39] [debug] [SeggerBackend] - ---just_read_access_port_register
[2026-Jan-15 12:35:39] [debug] [SeggerBackend] - ---just_select_access_port_register
[2026-Jan-15 12:35:39] [debug] [SeggerBackend] - Select AP 1, DP Bank 0, AP Bank 15
[2026-Jan-15 12:35:39] [trace] [  JLink] - JLINK_CORESIGHT_WriteAPDPReg(DP reg 0x02, 0x010000F0)  
[2026-Jan-15 12:35:39] [trace] [  JLink] - - 0.791ms returns 0  
[2026-Jan-15 12:35:39] [trace] [  JLink] - JLINK_HasError()  
[2026-Jan-15 12:35:39] [trace] [  JLink] - JLINK_CORESIGHT_ReadAPDPReg(AP reg 0x03)  
[2026-Jan-15 12:35:39] [trace] [  JLink] - Value=0x02880000
[2026-Jan-15 12:35:39] [trace] [  JLink] - - 1.043ms returns 0  
[2026-Jan-15 12:35:39] [trace] [  JLink] - JLINK_HasError()  
[2026-Jan-15 12:35:39] [debug] [SeggerBackend] - read_access_port_register
[2026-Jan-15 12:35:39] [debug] [SeggerBackend] - ---just_read_access_port_register
[2026-Jan-15 12:35:39] [debug] [SeggerBackend] - ---just_select_access_port_register
[2026-Jan-15 12:35:39] [trace] [  JLink] - JLINK_CORESIGHT_ReadAPDPReg(AP reg 0x03)  
[2026-Jan-15 12:35:39] [trace] [  JLink] - Value=0x02880000
[2026-Jan-15 12:35:39] [trace] [  JLink] - - 1.054ms returns 0  
[2026-Jan-15 12:35:39] [trace] [  JLink] - JLINK_HasError()  
[2026-Jan-15 12:35:39] [debug] [SeggerBackend] - read_access_port_register
[2026-Jan-15 12:35:39] [debug] [SeggerBackend] - ---just_read_access_port_register
[2026-Jan-15 12:35:39] [debug] [SeggerBackend] - ---just_select_access_port_register
[2026-Jan-15 12:35:39] [trace] [  JLink] - JLINK_CORESIGHT_ReadAPDPReg(AP reg 0x03)  
[2026-Jan-15 12:35:39] [trace] [  JLink] - Value=0x02880000
[2026-Jan-15 12:35:39] [trace] [  JLink] - - 1.058ms returns 0  
[2026-Jan-15 12:35:39] [trace] [  JLink] - JLINK_HasError()  
[2026-Jan-15 12:35:39] [debug] [SeggerBackend] - read_access_port_register
[2026-Jan-15 12:35:39] [debug] [SeggerBackend] - ---just_read_access_port_register
[2026-Jan-15 12:35:39] [debug] [SeggerBackend] - ---just_select_access_port_register
[2026-Jan-15 12:35:39] [trace] [  JLink] - JLINK_CORESIGHT_ReadAPDPReg(AP reg 0x03)  
[2026-Jan-15 12:35:39] [trace] [  JLink] - Value=0x02880000
[2026-Jan-15 12:35:39] [trace] [  JLink] - - 1.056ms returns 0  
[2026-Jan-15 12:35:39] [trace] [  JLink] - JLINK_HasError()  
[2026-Jan-15 12:35:39] [debug] [SeggerBackend] - read_access_port_register
[2026-Jan-15 12:35:39] [debug] [SeggerBackend] - ---just_read_access_port_register
[2026-Jan-15 12:35:39] [debug] [SeggerBackend] - ---just_select_access_port_register
[2026-Jan-15 12:35:39] [debug] [SeggerBackend] - Select AP 1, DP Bank 0, AP Bank 0
[2026-Jan-15 12:35:39] [trace] [  JLink] - JLINK_CORESIGHT_WriteAPDPReg(DP reg 0x02, 0x01000000)  
[2026-Jan-15 12:35:39] [trace] [  JLink] - - 0.596ms returns 0  
[2026-Jan-15 12:35:39] [trace] [  JLink] - JLINK_HasError()  
[2026-Jan-15 12:35:39] [trace] [  JLink] - JLINK_CORESIGHT_ReadAPDPReg(AP reg 0x03)  
[2026-Jan-15 12:35:39] [trace] [  JLink] - Value=0x00000001
[2026-Jan-15 12:35:39] [trace] [  JLink] - - 1.079ms returns 0  
[2026-Jan-15 12:35:39] [trace] [  JLink] - JLINK_HasError()  
[2026-Jan-15 12:35:39] [debug] [SeggerBackend] - read_access_port_register
[2026-Jan-15 12:35:39] [debug] [SeggerBackend] - ---just_read_access_port_register
[2026-Jan-15 12:35:39] [debug] [SeggerBackend] - ---just_select_access_port_register
[2026-Jan-15 12:35:39] [trace] [  JLink] - JLINK_CORESIGHT_ReadAPDPReg(AP reg 0x03)  
[2026-Jan-15 12:35:39] [trace] [  JLink] - Value=0x00000001
[2026-Jan-15 12:35:39] [trace] [  JLink] - - 1.040ms returns 0  
[2026-Jan-15 12:35:39] [trace] [  JLink] - JLINK_HasError()  
[2026-Jan-15 12:35:39] [debug] [SeggerBackend] - read_access_port_register
[2026-Jan-15 12:35:39] [debug] [SeggerBackend] - ---just_read_access_port_register
[2026-Jan-15 12:35:39] [debug] [SeggerBackend] - ---just_select_access_port_register
[2026-Jan-15 12:35:39] [trace] [  JLink] - JLINK_CORESIGHT_ReadAPDPReg(AP reg 0x03)  
[2026-Jan-15 12:35:39] [trace] [  JLink] - Value=0x00000001
[2026-Jan-15 12:35:39] [trace] [  JLink] - - 1.052ms returns 0  
[2026-Jan-15 12:35:39] [trace] [  JLink] - JLINK_HasError()  
[2026-Jan-15 12:35:39] [debug] [SeggerBackend] - read_access_port_register
[2026-Jan-15 12:35:39] [debug] [SeggerBackend] - ---just_read_access_port_register
[2026-Jan-15 12:35:39] [debug] [SeggerBackend] - ---just_select_access_port_register
[2026-Jan-15 12:35:39] [trace] [  JLink] - JLINK_CORESIGHT_ReadAPDPReg(AP reg 0x03)  
[2026-Jan-15 12:35:39] [trace] [  JLink] - Value=0x00000001
[2026-Jan-15 12:35:39] [trace] [  JLink] - - 1.047ms returns 0  
[2026-Jan-15 12:35:39] [trace] [  JLink] - JLINK_HasError()  
[2026-Jan-15 12:35:39] [ info] [  nRF52] - Protection status read as NONE
[2026-Jan-15 12:35:39] [debug] [  nRF52] - Just_debug_reset
[2026-Jan-15 12:35:39] [debug] [  nRF52] - Just_is_ctrl_ap_available
[2026-Jan-15 12:35:39] [debug] [SeggerBackend] - read_access_port_register
[2026-Jan-15 12:35:39] [debug] [SeggerBackend] - ---just_read_access_port_register
[2026-Jan-15 12:35:39] [debug] [SeggerBackend] - ---just_select_access_port_register
[2026-Jan-15 12:35:39] [debug] [SeggerBackend] - Select AP 1, DP Bank 0, AP Bank 15
[2026-Jan-15 12:35:39] [trace] [  JLink] - JLINK_CORESIGHT_WriteAPDPReg(DP reg 0x02, 0x010000F0)  
[2026-Jan-15 12:35:39] [trace] [  JLink] - - 0.568ms returns 0  
[2026-Jan-15 12:35:39] [trace] [  JLink] - JLINK_HasError()  
[2026-Jan-15 12:35:39] [trace] [  JLink] - JLINK_CORESIGHT_ReadAPDPReg(AP reg 0x03)  
[2026-Jan-15 12:35:39] [trace] [  JLink] - Value=0x02880000
[2026-Jan-15 12:35:39] [trace] [  JLink] - - 1.054ms returns 0  
[2026-Jan-15 12:35:39] [trace] [  JLink] - JLINK_HasError()  
[2026-Jan-15 12:35:39] [debug] [SeggerBackend] - read_access_port_register
[2026-Jan-15 12:35:39] [debug] [SeggerBackend] - ---just_read_access_port_register
[2026-Jan-15 12:35:39] [debug] [SeggerBackend] - ---just_select_access_port_register
[2026-Jan-15 12:35:39] [trace] [  JLink] - JLINK_CORESIGHT_ReadAPDPReg(AP reg 0x03)  
[2026-Jan-15 12:35:39] [trace] [  JLink] - Value=0x02880000
[2026-Jan-15 12:35:39] [trace] [  JLink] - - 1.030ms returns 0  
[2026-Jan-15 12:35:39] [trace] [  JLink] - JLINK_HasError()  
[2026-Jan-15 12:35:39] [debug] [SeggerBackend] - read_access_port_register
[2026-Jan-15 12:35:39] [debug] [SeggerBackend] - ---just_read_access_port_register
[2026-Jan-15 12:35:39] [debug] [SeggerBackend] - ---just_select_access_port_register
[2026-Jan-15 12:35:39] [trace] [  JLink] - JLINK_CORESIGHT_ReadAPDPReg(AP reg 0x03)  
[2026-Jan-15 12:35:39] [trace] [  JLink] - Value=0x02880000
[2026-Jan-15 12:35:39] [trace] [  JLink] - - 1.063ms returns 0  
[2026-Jan-15 12:35:39] [trace] [  JLink] - JLINK_HasError()  
[2026-Jan-15 12:35:39] [debug] [SeggerBackend] - read_access_port_register
[2026-Jan-15 12:35:39] [debug] [SeggerBackend] - ---just_read_access_port_register
[2026-Jan-15 12:35:39] [debug] [SeggerBackend] - ---just_select_access_port_register
[2026-Jan-15 12:35:39] [trace] [  JLink] - JLINK_CORESIGHT_ReadAPDPReg(AP reg 0x03)  
[2026-Jan-15 12:35:39] [trace] [  JLink] - Value=0x02880000
[2026-Jan-15 12:35:39] [trace] [  JLink] - - 1.045ms returns 0  
[2026-Jan-15 12:35:39] [trace] [  JLink] - JLINK_HasError()  
[2026-Jan-15 12:35:39] [debug] [SeggerBackend] - write_access_port_register
[2026-Jan-15 12:35:39] [debug] [SeggerBackend] - ---just_write_access_port_register
[2026-Jan-15 12:35:39] [debug] [SeggerBackend] - ---just_select_access_port_register
[2026-Jan-15 12:35:39] [debug] [SeggerBackend] - Select AP 1, DP Bank 0, AP Bank 0
[2026-Jan-15 12:35:39] [trace] [  JLink] - JLINK_CORESIGHT_WriteAPDPReg(DP reg 0x02, 0x01000000)  
[2026-Jan-15 12:35:39] [trace] [  JLink] - - 0.569ms returns 0  
[2026-Jan-15 12:35:39] [trace] [  JLink] - JLINK_HasError()  
[2026-Jan-15 12:35:39] [trace] [  JLink] - JLINK_CORESIGHT_WriteAPDPReg(AP reg 0x00, 0x00000001)  
[2026-Jan-15 12:35:39] [trace] [  JLink] - - 0.610ms returns 0  
[2026-Jan-15 12:35:39] [trace] [  JLink] - JLINK_HasError()  
[2026-Jan-15 12:35:39] [debug] [SeggerBackend] - write_access_port_register
[2026-Jan-15 12:35:39] [debug] [SeggerBackend] - ---just_write_access_port_register
[2026-Jan-15 12:35:39] [debug] [SeggerBackend] - ---just_select_access_port_register
[2026-Jan-15 12:35:39] [trace] [  JLink] - JLINK_CORESIGHT_WriteAPDPReg(AP reg 0x00, 0x00000000)  
[2026-Jan-15 12:35:39] [trace] [  JLink] - - 0.613ms returns 0  
[2026-Jan-15 12:35:39] [trace] [  JLink] - JLINK_HasError()  
[2026-Jan-15 12:35:39] [debug] [  nRF52] - Just_read_device_version
[2026-Jan-15 12:35:39] [debug] [  nRF52] - Just_readback_status
[2026-Jan-15 12:35:39] [debug] [  nRF52] - Just_is_ctrl_ap_available
[2026-Jan-15 12:35:39] [debug] [SeggerBackend] - read_access_port_register
[2026-Jan-15 12:35:39] [debug] [SeggerBackend] - ---just_read_access_port_register
[2026-Jan-15 12:35:39] [debug] [SeggerBackend] - ---just_select_access_port_register
[2026-Jan-15 12:35:39] [debug] [SeggerBackend] - Select AP 1, DP Bank 0, AP Bank 15
[2026-Jan-15 12:35:39] [trace] [  JLink] - JLINK_CORESIGHT_WriteAPDPReg(DP reg 0x02, 0x010000F0)  
[2026-Jan-15 12:35:39] [trace] [  JLink] - - 0.712ms returns 0  
[2026-Jan-15 12:35:39] [trace] [  JLink] - JLINK_HasError()  
[2026-Jan-15 12:35:39] [trace] [  JLink] - JLINK_CORESIGHT_ReadAPDPReg(AP reg 0x03)  
[2026-Jan-15 12:35:39] [trace] [  JLink] - Value=0x02880000
[2026-Jan-15 12:35:39] [trace] [  JLink] - - 1.065ms returns 0  
[2026-Jan-15 12:35:39] [trace] [  JLink] - JLINK_HasError()  
[2026-Jan-15 12:35:39] [debug] [SeggerBackend] - read_access_port_register
[2026-Jan-15 12:35:39] [debug] [SeggerBackend] - ---just_read_access_port_register
[2026-Jan-15 12:35:39] [debug] [SeggerBackend] - ---just_select_access_port_register
[2026-Jan-15 12:35:39] [trace] [  JLink] - JLINK_CORESIGHT_ReadAPDPReg(AP reg 0x03)  
[2026-Jan-15 12:35:39] [trace] [  JLink] - Value=0x02880000
[2026-Jan-15 12:35:39] [trace] [  JLink] - - 1.057ms returns 0  
[2026-Jan-15 12:35:39] [trace] [  JLink] - JLINK_HasError()  
[2026-Jan-15 12:35:39] [debug] [SeggerBackend] - read_access_port_register
[2026-Jan-15 12:35:39] [debug] [SeggerBackend] - ---just_read_access_port_register
[2026-Jan-15 12:35:39] [debug] [SeggerBackend] - ---just_select_access_port_register
[2026-Jan-15 12:35:39] [trace] [  JLink] - JLINK_CORESIGHT_ReadAPDPReg(AP reg 0x03)  
[2026-Jan-15 12:35:39] [trace] [  JLink] - Value=0x02880000
[2026-Jan-15 12:35:39] [trace] [  JLink] - - 1.073ms returns 0  
[2026-Jan-15 12:35:39] [trace] [  JLink] - JLINK_HasError()  
[2026-Jan-15 12:35:39] [debug] [SeggerBackend] - read_access_port_register
[2026-Jan-15 12:35:39] [debug] [SeggerBackend] - ---just_read_access_port_register
[2026-Jan-15 12:35:39] [debug] [SeggerBackend] - ---just_select_access_port_register
[2026-Jan-15 12:35:39] [trace] [  JLink] - JLINK_CORESIGHT_ReadAPDPReg(AP reg 0x03)  
[2026-Jan-15 12:35:39] [trace] [  JLink] - Value=0x02880000
[2026-Jan-15 12:35:39] [trace] [  JLink] - - 1.042ms returns 0  
[2026-Jan-15 12:35:39] [trace] [  JLink] - JLINK_HasError()  
[2026-Jan-15 12:35:39] [debug] [SeggerBackend] - read_access_port_register
[2026-Jan-15 12:35:39] [debug] [SeggerBackend] - ---just_read_access_port_register
[2026-Jan-15 12:35:39] [debug] [SeggerBackend] - ---just_select_access_port_register
[2026-Jan-15 12:35:39] [debug] [SeggerBackend] - Select AP 1, DP Bank 0, AP Bank 0
[2026-Jan-15 12:35:39] [trace] [  JLink] - JLINK_CORESIGHT_WriteAPDPReg(DP reg 0x02, 0x01000000)  
[2026-Jan-15 12:35:39] [trace] [  JLink] - - 0.596ms returns 0  
[2026-Jan-15 12:35:39] [trace] [  JLink] - JLINK_HasError()  
[2026-Jan-15 12:35:39] [trace] [  JLink] - JLINK_CORESIGHT_ReadAPDPReg(AP reg 0x03)  
[2026-Jan-15 12:35:39] [trace] [  JLink] - Value=0x00000001
[2026-Jan-15 12:35:39] [trace] [  JLink] - - 1.036ms returns 0  
[2026-Jan-15 12:35:39] [trace] [  JLink] - JLINK_HasError()  
[2026-Jan-15 12:35:39] [debug] [SeggerBackend] - read_access_port_register
[2026-Jan-15 12:35:39] [debug] [SeggerBackend] - ---just_read_access_port_register
[2026-Jan-15 12:35:39] [debug] [SeggerBackend] - ---just_select_access_port_register
[2026-Jan-15 12:35:39] [trace] [  JLink] - JLINK_CORESIGHT_ReadAPDPReg(AP reg 0x03)  
[2026-Jan-15 12:35:39] [trace] [  JLink] - Value=0x00000001
[2026-Jan-15 12:35:39] [trace] [  JLink] - - 1.037ms returns 0  
[2026-Jan-15 12:35:39] [trace] [  JLink] - JLINK_HasError()  
[2026-Jan-15 12:35:39] [debug] [SeggerBackend] - read_access_port_register
[2026-Jan-15 12:35:39] [debug] [SeggerBackend] - ---just_read_access_port_register
[2026-Jan-15 12:35:39] [debug] [SeggerBackend] - ---just_select_access_port_register
[2026-Jan-15 12:35:39] [trace] [  JLink] - JLINK_CORESIGHT_ReadAPDPReg(AP reg 0x03)  
[2026-Jan-15 12:35:39] [trace] [  JLink] - Value=0x00000001
[2026-Jan-15 12:35:39] [trace] [  JLink] - - 1.058ms returns 0  
[2026-Jan-15 12:35:39] [trace] [  JLink] - JLINK_HasError()  
[2026-Jan-15 12:35:39] [debug] [SeggerBackend] - read_access_port_register
[2026-Jan-15 12:35:39] [debug] [SeggerBackend] - ---just_read_access_port_register
[2026-Jan-15 12:35:39] [debug] [SeggerBackend] - ---just_select_access_port_register
[2026-Jan-15 12:35:39] [trace] [  JLink] - JLINK_CORESIGHT_ReadAPDPReg(AP reg 0x03)  
[2026-Jan-15 12:35:39] [trace] [  JLink] - Value=0x00000001
[2026-Jan-15 12:35:39] [trace] [  JLink] - - 1.051ms returns 0  
[2026-Jan-15 12:35:39] [trace] [  JLink] - JLINK_HasError()  
[2026-Jan-15 12:35:39] [ info] [  nRF52] - Protection status read as NONE
[2026-Jan-15 12:35:39] [debug] [SeggerBackend] - read_u32
[2026-Jan-15 12:35:39] [debug] [SeggerBackend] - ---just_connect_to_device
[2026-Jan-15 12:35:39] [debug] [SeggerBackend] - is_connected_to_device
[2026-Jan-15 12:35:39] [debug] [SeggerBackend] - ---set_coresight_ahb_ap_index
[2026-Jan-15 12:35:39] [trace] [  JLink] - JLINK_ExecCommand("CORESIGHT_SetIndexAHBAPToUse = 0", ...).   
[2026-Jan-15 12:35:39] [trace] [  JLink] - - 0.001ms returns 0x00  
[2026-Jan-15 12:35:39] [trace] [  JLink] - JLINK_HasError()  
[2026-Jan-15 12:35:39] [trace] [  JLink] - JLINK_ExecCommand("device = nRF52", ...).   
[2026-Jan-15 12:35:39] [trace] [  JLink] - Device "NRF52" selected.
[2026-Jan-15 12:35:39] [trace] [  JLink] - Device "NRF52" selected.
[2026-Jan-15 12:35:39] [trace] [  JLink] - - 0.510ms returns 0x00  
[2026-Jan-15 12:35:39] [trace] [  JLink] - JLINK_HasError()  
[2026-Jan-15 12:35:39] [trace] [  JLink] - JLINK_Connect()  
[2026-Jan-15 12:35:39] [trace] [  JLink] - InitTarget() start
[2026-Jan-15 12:35:39] [trace] [  JLink] - InitTarget() start
[2026-Jan-15 12:35:39] [trace] [  JLink] -  J-Link Script File: Executing InitTarget() 
[2026-Jan-15 12:35:39] [trace] [  JLink] - InitTarget() end - Took 9.93ms
[2026-Jan-15 12:35:39] [trace] [  JLink] - InitTarget() end - Took 9.93ms
[2026-Jan-15 12:35:39] [trace] [  JLink] - Found SW-DP with ID 0x2BA01477
[2026-Jan-15 12:35:39] [trace] [  JLink] - Found SW-DP with ID 0x2BA01477
[2026-Jan-15 12:35:39] [trace] [  JLink] - DPIDR: 0x2BA01477
[2026-Jan-15 12:35:39] [trace] [  JLink] - DPIDR: 0x2BA01477
[2026-Jan-15 12:35:39] [trace] [  JLink] - CoreSight SoC-400 or earlier
[2026-Jan-15 12:35:39] [trace] [  JLink] - CoreSight SoC-400 or earlier
[2026-Jan-15 12:35:39] [trace] [  JLink] - AP map detection skipped. Manually configured AP map found.
[2026-Jan-15 12:35:39] [trace] [  JLink] - AP map detection skipped. Manually configured AP map found.
[2026-Jan-15 12:35:39] [trace] [  JLink] - AP[0]: AHB-AP (IDR: Not set)
[2026-Jan-15 12:35:39] [trace] [  JLink] - AP[0]: AHB-AP (IDR: Not set)
[2026-Jan-15 12:35:39] [trace] [  JLink] - AP[0]: Core found
[2026-Jan-15 12:35:39] [trace] [  JLink] - AP[0]: Core found
[2026-Jan-15 12:35:39] [trace] [  JLink] - AP[0]: AHB-AP ROM base: 0xE00FF000
[2026-Jan-15 12:35:39] [trace] [  JLink] - AP[0]: AHB-AP ROM base: 0xE00FF000
[2026-Jan-15 12:35:39] [trace] [  JLink] - CPUID register: 0x410FC241. Implementer code: 0x41 (ARM)
[2026-Jan-15 12:35:39] [trace] [  JLink] - CPUID register: 0x410FC241. Implementer code: 0x41 (ARM)
[2026-Jan-15 12:35:39] [trace] [  JLink] - Found Cortex-M4 r0p1, Little endian.
[2026-Jan-15 12:35:39] [trace] [  JLink] - Found Cortex-M4 r0p1, Little endian.
[2026-Jan-15 12:35:39] [trace] [  JLink] - -- Max. mem block: 0x00005CD8
[2026-Jan-15 12:35:39] [trace] [  JLink] - CPU_ReadMem(4 bytes @ 0xE000EDF0)
[2026-Jan-15 12:35:39] [trace] [  JLink] - CPU_WriteMem(4 bytes @ 0xE000EDF0)
[2026-Jan-15 12:35:39] [trace] [  JLink] - CPU_ReadMem(4 bytes @ 0xE0002000)
[2026-Jan-15 12:35:39] [trace] [  JLink] - FPUnit: 6 code (BP) slots and 2 literal slots
[2026-Jan-15 12:35:39] [trace] [  JLink] - FPUnit: 6 code (BP) slots and 2 literal slots
[2026-Jan-15 12:35:39] [trace] [  JLink] - CPU_ReadMem(4 bytes @ 0xE000EDFC)
[2026-Jan-15 12:35:39] [trace] [  JLink] - CPU_WriteMem(4 bytes @ 0xE000EDFC)
[2026-Jan-15 12:35:39] [trace] [  JLink] - CPU_ReadMem(4 bytes @ 0xE0001000)
[2026-Jan-15 12:35:39] [trace] [  JLink] - CPU_WriteMem(4 bytes @ 0xE0001000)
[2026-Jan-15 12:35:39] [trace] [  JLink] - CPU_ReadMem(4 bytes @ 0xE000ED88)
[2026-Jan-15 12:35:39] [trace] [  JLink] - CPU_WriteMem(4 bytes @ 0xE000ED88)
[2026-Jan-15 12:35:39] [trace] [  JLink] - CPU_ReadMem(4 bytes @ 0xE000ED88)
[2026-Jan-15 12:35:39] [trace] [  JLink] - CPU_WriteMem(4 bytes @ 0xE000ED88)
[2026-Jan-15 12:35:39] [trace] [  JLink] - CoreSight components:
[2026-Jan-15 12:35:39] [trace] [  JLink] - CoreSight components:
[2026-Jan-15 12:35:39] [trace] [  JLink] - ROMTbl[0] @ E00FF000
[2026-Jan-15 12:35:39] [trace] [  JLink] - ROMTbl[0] @ E00FF000
[2026-Jan-15 12:35:39] [trace] [  JLink] - CPU_ReadMem(64 bytes @ 0xE00FF000)
[2026-Jan-15 12:35:39] [trace] [  JLink] - CPU_ReadMem(32 bytes @ 0xE000EFE0)
[2026-Jan-15 12:35:39] [trace] [  JLink] - [0][0]: E000E000 CID B105E00D PID 000BB00C SCS-M7
[2026-Jan-15 12:35:39] [trace] [  JLink] - [0][0]: E000E000 CID B105E00D PID 000BB00C SCS-M7
[2026-Jan-15 12:35:39] [trace] [  JLink] - CPU_ReadMem(32 bytes @ 0xE0001FE0)
[2026-Jan-15 12:35:39] [trace] [  JLink] - [0][1]: E0001000 CID B105E00D PID 003BB002 DWT
[2026-Jan-15 12:35:39] [trace] [  JLink] - [0][1]: E0001000 CID B105E00D PID 003BB002 DWT
[2026-Jan-15 12:35:39] [trace] [  JLink] - CPU_ReadMem(32 bytes @ 0xE0002FE0)
[2026-Jan-15 12:35:39] [trace] [  JLink] - [0][2]: E0002000 CID B105E00D PID 002BB003 FPB
[2026-Jan-15 12:35:39] [trace] [  JLink] - [0][2]: E0002000 CID B105E00D PID 002BB003 FPB
[2026-Jan-15 12:35:39] [trace] [  JLink] - CPU_ReadMem(32 bytes @ 0xE0000FE0)
[2026-Jan-15 12:35:39] [trace] [  JLink] - [0][3]: E0000000 CID B105E00D PID 003BB001 ITM
[2026-Jan-15 12:35:39] [trace] [  JLink] - [0][3]: E0000000 CID B105E00D PID 003BB001 ITM
[2026-Jan-15 12:35:39] [trace] [  JLink] - CPU_ReadMem(32 bytes @ 0xE0040FE0)
[2026-Jan-15 12:35:39] [trace] [  JLink] - [0][4]: E0040000 CID B105900D PID 000BB9A1 TPIU
[2026-Jan-15 12:35:39] [trace] [  JLink] - [0][4]: E0040000 CID B105900D PID 000BB9A1 TPIU
[2026-Jan-15 12:35:39] [trace] [  JLink] - CPU_ReadMem(32 bytes @ 0xE0041FE0)
[2026-Jan-15 12:35:39] [trace] [  JLink] - [0][5]: E0041000 CID B105900D PID 000BB925 ETM
[2026-Jan-15 12:35:39] [trace] [  JLink] - [0][5]: E0041000 CID B105900D PID 000BB925 ETM
[2026-Jan-15 12:35:39] [trace] [  JLink] - - 112.449ms returns 0x00  
[2026-Jan-15 12:35:39] [trace] [  JLink] - JLINK_HasError()  
[2026-Jan-15 12:35:39] [trace] [  JLink] - JLINK_CORE_GetFound()  
[2026-Jan-15 12:35:39] [trace] [  JLink] - - 0.002ms returns 0xE0000FF  
[2026-Jan-15 12:35:39] [debug] [SeggerBackend] - ---just_read_u32
[2026-Jan-15 12:35:39] [debug] [SeggerBackend] - ---just_invalidate_cache
[2026-Jan-15 12:35:39] [trace] [  JLink] - JLINK_ExecCommand("InvalidateCache", ...).   
[2026-Jan-15 12:35:39] [trace] [  JLink] - - 0.022ms returns 0x00  
[2026-Jan-15 12:35:39] [trace] [  JLink] - JLINK_HasError()  
[2026-Jan-15 12:35:39] [trace] [  JLink] - JLINK_ReadMemU32(0x10000130, 0x1 Items)  
[2026-Jan-15 12:35:39] [trace] [  JLink] - CPU_ReadMem(4 bytes @ 0x10000130)
[2026-Jan-15 12:35:39] [trace] [  JLink] - Data:  0D 00 00 00
[2026-Jan-15 12:35:39] [trace] [  JLink] - - 3.261ms returns 1 (0x1)  
[2026-Jan-15 12:35:39] [trace] [  JLink] - JLINK_HasError()  
[2026-Jan-15 12:35:39] [debug] [SeggerBackend] - read_u32
[2026-Jan-15 12:35:39] [debug] [SeggerBackend] - ---just_connect_to_device
[2026-Jan-15 12:35:39] [debug] [SeggerBackend] - is_connected_to_device
[2026-Jan-15 12:35:39] [debug] [SeggerBackend] - ---just_read_u32
[2026-Jan-15 12:35:39] [debug] [SeggerBackend] - ---just_invalidate_cache
[2026-Jan-15 12:35:39] [trace] [  JLink] - JLINK_ExecCommand("InvalidateCache", ...).   
[2026-Jan-15 12:35:39] [trace] [  JLink] - - 0.003ms returns 0x00  
[2026-Jan-15 12:35:39] [trace] [  JLink] - JLINK_HasError()  
[2026-Jan-15 12:35:39] [trace] [  JLink] - JLINK_ReadMemU32(0x10000134, 0x1 Items)  
[2026-Jan-15 12:35:39] [trace] [  JLink] - CPU_ReadMem(4 bytes @ 0x10000134)
[2026-Jan-15 12:35:39] [trace] [  JLink] - Data:  00 00 00 00
[2026-Jan-15 12:35:39] [trace] [  JLink] - - 3.169ms returns 1 (0x1)  
[2026-Jan-15 12:35:39] [trace] [  JLink] - JLINK_HasError()  
[2026-Jan-15 12:35:39] [debug] [  nRF52] - Just_decode_device_version
[2026-Jan-15 12:35:39] [debug] [  nRF52] - Device identified as NRF52833_xxAA_REV1
[2026-Jan-15 12:35:39] [debug] [  nRF52] - write_approtect
[2026-Jan-15 12:35:39] [debug] [  nRF52] - NRF52833 REV1 does not implement updated APPROTECT mechanism.
[2026-Jan-15 12:35:39] [debug] [SeggerBackend] - halt
[2026-Jan-15 12:35:39] [debug] [SeggerBackend] - ---just_connect_to_device
[2026-Jan-15 12:35:39] [debug] [SeggerBackend] - is_connected_to_device
[2026-Jan-15 12:35:39] [debug] [SeggerBackend] - ---just_halt
[2026-Jan-15 12:35:39] [trace] [  JLink] - JLINK_Halt()  
[2026-Jan-15 12:35:39] [trace] [  JLink] - - 52.250ms returns 0x00  
[2026-Jan-15 12:35:39] [trace] [  JLink] - JLINK_HasError()  
[2026-Jan-15 12:35:39] [debug] [SeggerBackend] - sys_reset
[2026-Jan-15 12:35:39] [debug] [SeggerBackend] - ---just_connect_to_device
[2026-Jan-15 12:35:39] [debug] [SeggerBackend] - is_connected_to_device
[2026-Jan-15 12:35:39] [debug] [SeggerBackend] - ---just_halt
[2026-Jan-15 12:35:39] [trace] [  JLink] - JLINK_Halt()  
[2026-Jan-15 12:35:39] [trace] [  JLink] - - 3.768ms returns 0x00  
[2026-Jan-15 12:35:39] [trace] [  JLink] - JLINK_HasError()  
[2026-Jan-15 12:35:39] [debug] [SeggerBackend] - ---just_sys_reset
[2026-Jan-15 12:35:39] [trace] [  JLink] - JLINK_SetResetType(JLINKARM_CM3_RESET_TYPE_NORMAL)  
[2026-Jan-15 12:35:39] [trace] [  JLink] - - 0.009ms returns JLINKARM_CM3_RESET_TYPE_NORMAL  
[2026-Jan-15 12:35:39] [trace] [  JLink] - JLINK_HasError()  
[2026-Jan-15 12:35:39] [trace] [  JLink] - JLINK_Reset()  
[2026-Jan-15 12:35:39] [trace] [  JLink] - CPU_WriteMem(4 bytes @ 0xE000EDF0)
[2026-Jan-15 12:35:39] [trace] [  JLink] - CPU_WriteMem(4 bytes @ 0xE000EDFC)
[2026-Jan-15 12:35:39] [trace] [  JLink] - Reset: Halt core after reset via DEMCR.VC_CORERESET.
[2026-Jan-15 12:35:39] [trace] [  JLink] - Reset: Halt core after reset via DEMCR.VC_CORERESET.
[2026-Jan-15 12:35:39] [trace] [  JLink] - Reset: Reset device via AIRCR.SYSRESETREQ.
[2026-Jan-15 12:35:39] [trace] [  JLink] - Reset: Reset device via AIRCR.SYSRESETREQ.
[2026-Jan-15 12:35:39] [trace] [  JLink] - CPU_WriteMem(4 bytes @ 0xE000ED0C)
[2026-Jan-15 12:35:39] [trace] [  JLink] - CPU_ReadMem(4 bytes @ 0xE000EDF0)
[2026-Jan-15 12:35:39] [trace] [  JLink] - CPU_ReadMem(4 bytes @ 0xE000EDF0)
[2026-Jan-15 12:35:39] [trace] [  JLink] - CPU_WriteMem(4 bytes @ 0xE000EDFC)
[2026-Jan-15 12:35:39] [trace] [  JLink] - CPU_ReadMem(4 bytes @ 0xE000EDF0)
[2026-Jan-15 12:35:39] [trace] [  JLink] - CPU_WriteMem(4 bytes @ 0xE0002000)
[2026-Jan-15 12:35:39] [trace] [  JLink] - CPU_ReadMem(4 bytes @ 0xE000EDFC)
[2026-Jan-15 12:35:39] [trace] [  JLink] - CPU_ReadMem(4 bytes @ 0xE0001000)
[2026-Jan-15 12:35:39] [trace] [  JLink] - - 144.917ms  
[2026-Jan-15 12:35:39] [trace] [  JLink] - JLINK_HasError()  
[2026-Jan-15 12:35:39] [debug] [  nRF52] - Just_power_ram_all
[2026-Jan-15 12:35:39] [debug] [  nRF52] - Just_readback_status
[2026-Jan-15 12:35:39] [debug] [  nRF52] - Just_is_ctrl_ap_available
[2026-Jan-15 12:35:39] [debug] [SeggerBackend] - read_access_port_register
[2026-Jan-15 12:35:39] [debug] [SeggerBackend] - ---just_read_access_port_register
[2026-Jan-15 12:35:39] [debug] [SeggerBackend] - ---just_select_access_port_register
[2026-Jan-15 12:35:39] [debug] [SeggerBackend] - Select AP 1, DP Bank 255, AP Bank 15
[2026-Jan-15 12:35:39] [trace] [  JLink] - JLINK_CORESIGHT_WriteAPDPReg(DP reg 0x02, 0x010000F0)  
[2026-Jan-15 12:35:39] [trace] [  JLink] - - 0.886ms returns 0  
[2026-Jan-15 12:35:39] [trace] [  JLink] - JLINK_HasError()  
[2026-Jan-15 12:35:39] [trace] [  JLink] - JLINK_CORESIGHT_ReadAPDPReg(AP reg 0x03)  
[2026-Jan-15 12:35:39] [trace] [  JLink] - Value=0x02880000
[2026-Jan-15 12:35:39] [trace] [  JLink] - - 1.306ms returns 0  
[2026-Jan-15 12:35:39] [trace] [  JLink] - JLINK_HasError()  
[2026-Jan-15 12:35:39] [debug] [SeggerBackend] - read_access_port_register
[2026-Jan-15 12:35:39] [debug] [SeggerBackend] - ---just_read_access_port_register
[2026-Jan-15 12:35:39] [debug] [SeggerBackend] - ---just_select_access_port_register
[2026-Jan-15 12:35:39] [trace] [  JLink] - JLINK_CORESIGHT_ReadAPDPReg(AP reg 0x03)  
[2026-Jan-15 12:35:39] [trace] [  JLink] - Value=0x02880000
[2026-Jan-15 12:35:39] [trace] [  JLink] - - 1.313ms returns 0  
[2026-Jan-15 12:35:39] [trace] [  JLink] - JLINK_HasError()  
[2026-Jan-15 12:35:39] [debug] [SeggerBackend] - read_access_port_register
[2026-Jan-15 12:35:39] [debug] [SeggerBackend] - ---just_read_access_port_register
[2026-Jan-15 12:35:39] [debug] [SeggerBackend] - ---just_select_access_port_register
[2026-Jan-15 12:35:39] [trace] [  JLink] - JLINK_CORESIGHT_ReadAPDPReg(AP reg 0x03)  
[2026-Jan-15 12:35:39] [trace] [  JLink] - Value=0x02880000
[2026-Jan-15 12:35:39] [trace] [  JLink] - - 1.342ms returns 0  
[2026-Jan-15 12:35:39] [trace] [  JLink] - JLINK_HasError()  
[2026-Jan-15 12:35:39] [debug] [SeggerBackend] - read_access_port_register
[2026-Jan-15 12:35:39] [debug] [SeggerBackend] - ---just_read_access_port_register
[2026-Jan-15 12:35:39] [debug] [SeggerBackend] - ---just_select_access_port_register
[2026-Jan-15 12:35:39] [trace] [  JLink] - JLINK_CORESIGHT_ReadAPDPReg(AP reg 0x03)  
[2026-Jan-15 12:35:39] [trace] [  JLink] - Value=0x02880000
[2026-Jan-15 12:35:39] [trace] [  JLink] - - 1.344ms returns 0  
